(1597242902.648455) elmcan 266#0000012000009401
(1597242902.652945) elmcan 118#5401221800000000
(1597242902.655838) elmcan 257#C3491F0002000000
(1597242902.659582) elmcan 266#0000012000009401
(1597242902.662329) elmcan 118#5502221800000000
(1597242902.666855) elmcan 266#0000012000009401
(1597242902.670444) elmcan 118#5603221800000000
(1597242902.672695) elmcan 257#C44A1F0002000000
(1597242902.676300) elmcan 266#0000012000009401
(1597242902.679143) elmcan 118#5704221800000000
(1597242902.686776) elmcan 266#0000012000009401
(1597242902.689472) elmcan 118#5805221800000000
(1597242902.693219) elmcan 257#C54B1F0002000000
(1597242902.696366) elmcan 266#0000012000009401
(1597242902.699059) elmcan 118#5906221800000000
(1597242902.706520) elmcan 266#0000012000009401
(1597242902.709373) elmcan 118#5A07221800000000
(1597242902.712456) elmcan 257#C64C1F0002000000
(1597242902.716418) elmcan 266#0000012000009401
(1597242902.719118) elmcan 118#5B08221800000000
(1597242902.726743) elmcan 266#0000012000009401
(1597242902.729625) elmcan 118#5C09221800000000
(1597242902.731201) elmcan 257#C74D1F0002000000
(1597242902.734672) elmcan 266#0000012000009401
(1597242902.736070) elmcan 118#5D0A221800000000
(1597242902.745060) elmcan 266#0000012000009401
(1597242902.746494) elmcan 118#5E0B221800000000
(1597242902.747899) elmcan 257#C84E1F0002000000
(1597242902.754759) elmcan 266#0000012000009401
(1597242902.756144) elmcan 118#5F0C221800000000
(1597242902.764722) elmcan 266#0000012000009401
(1597242902.766156) elmcan 118#600D221800000000
(1597242902.767564) elmcan 257#C94F1F0002000000
(1597242902.774951) elmcan 266#0000012000009401
(1597242902.776382) elmcan 118#610E221800000000
(1597242902.784778) elmcan 266#0000012000009401
(1597242902.786217) elmcan 118#620F221800000000
(1597242902.787649) elmcan 257#BA401F0002000000
(1597242902.794689) elmcan 266#0000012000009401
(1597242902.796092) elmcan 118#5300221800000000
(1597242902.804774) elmcan 266#0000012000009401
(1597242902.806233) elmcan 118#5401221800000000
(1597242902.807652) elmcan 257#BB411F0002000000
(1597242902.814977) elmcan 266#0000012000009401
(1597242902.816577) elmcan 118#5502221800000000
(1597242902.824677) elmcan 266#0000012000009401
(1597242902.826191) elmcan 118#5603221800000000
(1597242902.827610) elmcan 257#BC421F0002000000
(1597242902.835090) elmcan 266#0000012000009401
(1597242902.837365) elmcan 118#5704221800000000
(1597242902.845510) elmcan 266#0000012000009401
(1597242902.847135) elmcan 118#5805221800000000
(1597242902.848795) elmcan 257#BD431F0002000000
(1597242902.854910) elmcan 266#0000012000009401
(1597242902.856283) elmcan 118#5906221800000000
(1597242902.864720) elmcan 266#0000012000009401
(1597242902.866100) elmcan 118#5A07221800000000
(1597242902.867507) elmcan 257#BE441F0002000000
(1597242902.875039) elmcan 266#0000012000009401
(1597242902.876440) elmcan 118#5B08221800000000
(1597242902.884706) elmcan 266#0000012000009401
(1597242902.886104) elmcan 118#5C09221800000000
(1597242902.887511) elmcan 257#BF451F0002000000
(1597242902.895075) elmcan 266#0000012000009401
(1597242902.896151) elmcan 118#5D0A221800000000
(1597242902.904717) elmcan 266#0000012000009401
(1597242902.906131) elmcan 118#5E0B221800000000
(1597242902.907540) elmcan 257#C0461F0002000000
(1597242902.914650) elmcan 266#0000012000009401
(1597242902.916038) elmcan 118#5F0C221800000000
(1597242902.924592) elmcan 266#0000012000009401
(1597242902.926220) elmcan 118#600D221800000000
(1597242902.927775) elmcan 257#C1471F0002000000
(1597242902.934657) elmcan 266#0000012000009401
(1597242902.936039) elmcan 118#610E221800000000
(1597242902.945050) elmcan 266#0000012000009401
(1597242902.946432) elmcan 118#620F221800000000
(1597242902.947837) elmcan 257#C2481F0002000000
(1597242902.954608) elmcan 266#0000012000009401
(1597242902.956025) elmcan 118#5300221800000000
(1597242902.964666) elmcan 266#0000012000009401
(1597242902.966163) elmcan 118#5401221800000000
(1597242902.967557) elmcan 257#C3491F0002000000
(1597242902.974593) elmcan 266#0000012000009401
(1597242902.976013) elmcan 118#5502221800000000
(1597242902.986945) elmcan 266#0000012000009401
(1597242902.990623) elmcan 118#5603221800000000
(1597242902.992150) elmcan 257#C44A1F0002000000
(1597242902.994599) elmcan 266#0000012000009401
(1597242902.995994) elmcan 118#5704221800000000
(1597242903.004658) elmcan 266#0000012000009401
(1597242903.006074) elmcan 118#5805221800000000
(1597242903.007485) elmcan 257#C54B1F0002000000
(1597242903.014613) elmcan 266#0000012000009401
(1597242903.015998) elmcan 118#5906221800000000
(1597242903.024639) elmcan 266#0000012000009401
(1597242903.026257) elmcan 118#5A07221800000000
(1597242903.027814) elmcan 257#C64C1F0002000000
(1597242903.034623) elmcan 266#0000012000009401
(1597242903.036031) elmcan 118#5B08221800000000
(1597242903.045522) elmcan 266#0000012000009401
(1597242903.046852) elmcan 118#5C09221800000000
(1597242903.049683) elmcan 257#C74D1F0002000000
(1597242903.056387) elmcan 266#0000012000009401
(1597242903.057752) elmcan 118#5D0A221800000000
(1597242903.064639) elmcan 266#0000012000009401
(1597242903.066044) elmcan 118#5E0B221800000000
(1597242903.067465) elmcan 257#C84E1F0002000000
(1597242903.074526) elmcan 266#0000012000009401
(1597242903.075971) elmcan 118#5F0C221800000000
(1597242903.084558) elmcan 266#0000012000009401
(1597242903.085973) elmcan 118#600D221800000000
(1597242903.087391) elmcan 257#C94F1F0002000000
(1597242903.094553) elmcan 266#0000012000009401
(1597242903.096002) elmcan 118#610E221800000000
(1597242903.104746) elmcan 266#0000012000009401
(1597242903.106121) elmcan 118#620F221800000000
(1597242903.107537) elmcan 257#BA401F0002000000
(1597242903.114521) elmcan 266#0000012000009401
(1597242903.115940) elmcan 118#5300221800000000
(1597242903.124491) elmcan 266#0000012000009401
(1597242903.126196) elmcan 118#5401221800000000
(1597242903.129867) elmcan 257#BB411F0002000000
(1597242903.134376) elmcan 266#0000012000009401
(1597242903.136141) elmcan 118#5502221800000000
(1597242903.144798) elmcan 266#0000012000009401
(1597242903.146204) elmcan 118#5603221800000000
(1597242903.147552) elmcan 257#BC421F0002000000
(1597242903.154326) elmcan 266#0000012000009401
(1597242903.155707) elmcan 118#5704221800000000
(1597242903.164375) elmcan 266#0000012000009401
(1597242903.165841) elmcan 118#5805221800000000
(1597242903.167146) elmcan 257#BD431F0002000000
(1597242903.174378) elmcan 266#0000012000009401
(1597242903.175737) elmcan 118#5906221800000000
(1597242903.184516) elmcan 266#0000012000009401
(1597242903.186276) elmcan 118#5A07221800000000
(1597242903.187449) elmcan 257#BE441F0002000000
(1597242903.194414) elmcan 266#0000012000009401
(1597242903.195729) elmcan 118#5B08221800000000
(1597242903.204380) elmcan 266#0000012000009401
(1597242903.206186) elmcan 118#5C09221800000000
(1597242903.207397) elmcan 257#BF451F0002000000
(1597242903.214334) elmcan 266#0000012000009401
(1597242903.215674) elmcan 118#5D0A221800000000
(1597242903.224416) elmcan 266#0000012000009401
(1597242903.226017) elmcan 118#5E0B221800000000
(1597242903.227181) elmcan 257#C0461F0002000000
(1597242903.234335) elmcan 266#0000012000009401
(1597242903.235689) elmcan 118#5F0C221800000000
(1597242903.244935) elmcan 266#0000012000009401
(1597242903.248316) elmcan 118#600D221800000000
(1597242903.250196) elmcan 257#C1471F0002000000
(1597242903.255827) elmcan 266#0000012000009401
(1597242903.257366) elmcan 118#610E221800000000
(1597242903.264540) elmcan 266#0000012000009401
(1597242903.266346) elmcan 118#620F221800000000
(1597242903.275881) elmcan 118#5300221800000000
(1597242903.284405) elmcan 266#0000012000009401
(1597242903.286210) elmcan 118#5401221800000000
(1597242903.287977) elmcan 257#C3491F0002000000
(1597242903.294379) elmcan 266#0000012000009401
(1597242903.296158) elmcan 118#5502221800000000
(1597242903.304409) elmcan 266#0000012000009401
(1597242903.306213) elmcan 118#5603221800000000
(1597242903.307971) elmcan 257#C44A1F0002000000
(1597242903.315603) elmcan 266#0000012000009401
(1597242903.315917) elmcan 118#5704221800000000
(1597242903.324505) elmcan 266#0000012000009401
(1597242903.326321) elmcan 118#5805221800000000
(1597242903.328133) elmcan 257#C54B1F0002000000
(1597242903.334364) elmcan 266#0000012000009401
(1597242903.336158) elmcan 118#5906221800000000
(1597242903.346776) elmcan 266#0000012000009401
(1597242903.348355) elmcan 118#5A07221800000000
(1597242903.348699) elmcan 257#C64C1F0002000000
(1597242903.354694) elmcan 266#0000012000009401
(1597242903.355956) elmcan 118#5B08221800000000
(1597242903.365378) elmcan 266#0000012000009401
(1597242903.367185) elmcan 118#5C09221800000000
(1597242903.368280) elmcan 257#C74D1F0002000000
(1597242903.375151) elmcan 266#0000012000009401
(1597242903.376171) elmcan 118#5D0A221800000000
(1597242903.384566) elmcan 266#0000012000009401
(1597242903.386574) elmcan 118#5E0B221800000000
(1597242903.387749) elmcan 257#C84E1F0002000000
(1597242903.394534) elmcan 266#0000012000009401
(1597242903.395823) elmcan 118#5F0C221800000000
(1597242903.404540) elmcan 266#0000012000009401
(1597242903.405891) elmcan 118#600D221800000000
(1597242903.407194) elmcan 257#C94F1F0002000000
(1597242903.414516) elmcan 266#0000012000009401
(1597242903.416275) elmcan 118#610E221800000000
(1597242903.425095) elmcan 266#0000012000009401
(1597242903.426143) elmcan 118#620F221800000000
(1597242903.427259) elmcan 257#BA401F0002000000
(1597242903.435943) elmcan 266#0000012000009401
(1597242903.437586) elmcan 118#5300221800000000
(1597242903.446810) elmcan 266#0000012000009401
(1597242903.452585) elmcan 118#5401221800000000
(1597242903.454037) elmcan 257#BB411F0002000000
(1597242903.459819) elmcan 266#0000012000009401
(1597242903.469246) elmcan 118#5502221800000000
(1597242903.470255) elmcan 266#0000012000009401
(1597242903.476200) elmcan 118#5603221800000000
(1597242903.477567) elmcan 257#BC421F0002000000
(1597242903.484684) elmcan 266#0000012000009401
(1597242903.489383) elmcan 118#5704221800000000
(1597242903.490078) elmcan 266#0000012000009401
(1597242903.490626) elmcan 118#5805221800000000
(1597242903.492727) elmcan 257#BD431F0002000000
(1597242903.498813) elmcan 266#0000012000009401
(1597242903.500460) elmcan 118#5906221800000000
(1597242903.506211) elmcan 266#0000012000009401
(1597242903.509772) elmcan 118#5A07221800000000
(1597242903.512092) elmcan 257#BE441F0002000000
(1597242903.515839) elmcan 266#0000012000009401
(1597242903.518492) elmcan 118#5B08221800000000
(1597242903.525802) elmcan 266#0000012000009401
(1597242903.528714) elmcan 118#5C09221800000000
(1597242903.531539) elmcan 257#BF451F0002000000
(1597242903.535922) elmcan 266#0000012000009401
(1597242903.537310) elmcan 118#5D0A221800000000
(1597242903.544459) elmcan 266#0000012000009401
(1597242903.545865) elmcan 118#5E0B221800000000
(1597242903.547380) elmcan 257#C0461F0002000000
(1597242903.554310) elmcan 266#0000012000009401
(1597242903.555806) elmcan 118#5F0C221800000000
(1597242903.564496) elmcan 266#0000012000009401
(1597242903.566001) elmcan 118#600D221800000000
(1597242903.567416) elmcan 257#C1471F0002000000
(1597242903.574411) elmcan 266#0000012000009401
(1597242903.575922) elmcan 118#610E221800000000
(1597242903.584272) elmcan 266#0000012000009401
(1597242903.585826) elmcan 118#620F221800000000
(1597242903.587252) elmcan 257#C2481F0002000000
(1597242903.594399) elmcan 266#0000012000009401
(1597242903.595919) elmcan 118#5300221800000000
(1597242903.604340) elmcan 266#0000012000009401
(1597242903.605935) elmcan 118#5401221800000000
(1597242903.607363) elmcan 257#C3491F0002000000
(1597242903.614277) elmcan 266#0000012000009401
(1597242903.615816) elmcan 118#5502221800000000
(1597242903.624322) elmcan 266#0000012000009401
(1597242903.625894) elmcan 118#5603221800000000
(1597242903.627314) elmcan 257#C44A1F0002000000
(1597242903.634271) elmcan 266#0000012000009401
(1597242903.635826) elmcan 118#5704221800000000
(1597242903.644461) elmcan 266#0000012000009401
(1597242903.646009) elmcan 118#5805221800000000
(1597242903.647515) elmcan 257#C54B1F0002000000
(1597242903.655064) elmcan 266#0000012000009401
(1597242903.656822) elmcan 118#5906221800000000
(1597242903.665554) elmcan 266#0000012000009401
(1597242903.668176) elmcan 118#5A07221800000000
(1597242903.670033) elmcan 257#C64C1F0002000000
(1597242903.674559) elmcan 266#0000012000009401
(1597242903.676351) elmcan 118#5B08221800000000
(1597242903.684381) elmcan 266#0000012000009401
(1597242903.686156) elmcan 118#5C09221800000000
(1597242903.687915) elmcan 257#C74D1F0002000000
(1597242903.695619) elmcan 266#0000012000009401
(1597242903.695939) elmcan 118#5D0A221800000000
(1597242903.704423) elmcan 266#0000012000009401
(1597242903.706227) elmcan 118#5E0B221800000000
(1597242903.707999) elmcan 257#C84E1F0002000000
(1597242903.714384) elmcan 266#0000012000009401
(1597242903.716149) elmcan 118#5F0C221800000000
(1597242903.724396) elmcan 266#0000012000009401
(1597242903.726226) elmcan 118#600D221800000000
(1597242903.728001) elmcan 257#C94F1F0002000000
(1597242903.735582) elmcan 266#0000012000009401
(1597242903.735891) elmcan 118#610E221800000000
(1597242903.746843) elmcan 266#0000012000009401
(1597242903.747187) elmcan 118#620F221800000000
(1597242903.747457) elmcan 257#BA401F0002000000
(1597242903.755663) elmcan 266#0000012000009401
(1597242903.755978) elmcan 118#5300221800000000
(1597242903.766750) elmcan 266#0000012000009401
(1597242903.767100) elmcan 118#5401221800000000
(1597242903.767364) elmcan 257#BB411F0002000000
(1597242903.775593) elmcan 266#0000012000009401
(1597242903.775911) elmcan 118#5502221800000000
(1597242903.786835) elmcan 266#0000012000009401
(1597242903.787176) elmcan 118#5603221800000000
(1597242903.788744) elmcan 257#BC421F0002000000
(1597242903.795528) elmcan 266#0000012000009401
(1597242903.795859) elmcan 118#5704221800000000
(1597242903.806741) elmcan 266#0000012000009401
(1597242903.807084) elmcan 118#5805221800000000
(1597242903.808665) elmcan 257#BD431F0002000000
(1597242903.815649) elmcan 266#0000012000009401
(1597242903.815966) elmcan 118#5906221800000000
(1597242903.826772) elmcan 266#0000012000009401
(1597242903.827118) elmcan 118#5A07221800000000
(1597242903.827384) elmcan 257#BE441F0002000000
(1597242903.835602) elmcan 266#0000012000009401
(1597242903.835928) elmcan 118#5B08221800000000
(1597242903.846942) elmcan 266#0000012000009401
(1597242903.847290) elmcan 118#5C09221800000000
(1597242903.848742) elmcan 257#BF451F0002000000
(1597242903.855975) elmcan 266#0000012000009401
(1597242903.856481) elmcan 118#5D0A221800000000
(1597242903.864853) elmcan 266#0000012000009401
(1597242903.866531) elmcan 118#5E0B221800000000
(1597242903.869302) elmcan 257#C0461F0002000000
(1597242903.874543) elmcan 266#0000012000009401
(1597242903.875927) elmcan 118#5F0C221800000000
(1597242903.884327) elmcan 266#0000012000009401
(1597242903.885660) elmcan 118#600D221800000000
(1597242903.886997) elmcan 257#C1471F0002000000
(1597242903.894532) elmcan 266#0000012000009401
(1597242903.895866) elmcan 118#610E221800000000
(1597242903.905178) elmcan 266#0000012000009401
(1597242903.907431) elmcan 118#620F221800000000
(1597242903.907733) elmcan 257#C2481F0002000000
(1597242903.914577) elmcan 266#0000012000009401
(1597242903.916058) elmcan 118#5300221800000000
(1597242903.924288) elmcan 266#0000012000009401
(1597242903.925935) elmcan 118#5401221800000000
(1597242903.935538) elmcan 118#5502221800000000
(1597242903.944735) elmcan 266#0000012000009401
(1597242903.947501) elmcan 118#5603221800000000
(1597242903.947808) elmcan 257#C44A1F0002000000
(1597242903.954344) elmcan 266#0000012000009401
(1597242903.955680) elmcan 118#5704221800000000
(1597242903.964343) elmcan 266#0000012000009401
(1597242903.965759) elmcan 118#5805221800000000
(1597242903.967232) elmcan 257#C54B1F0002000000
(1597242903.974455) elmcan 266#0000012000009401
(1597242903.975797) elmcan 118#5906221800000000
(1597242903.984248) elmcan 266#0000012000009401
(1597242903.985596) elmcan 118#5A07221800000000
(1597242903.987036) elmcan 257#C64C1F0002000000
(1597242903.994319) elmcan 266#0000012000009401
(1597242903.995632) elmcan 118#5B08221800000000
(1597242904.004256) elmcan 266#0000012000009401
(1597242904.005610) elmcan 118#5C09221800000000
(1597242904.006967) elmcan 257#C74D1F0002000000
(1597242904.014300) elmcan 266#0000012000009401
(1597242904.015731) elmcan 118#5D0A221800000000
(1597242904.024305) elmcan 266#0000012000009401
(1597242904.025789) elmcan 118#5E0B221800000000
(1597242904.027173) elmcan 257#C84E1F0002000000
(1597242904.034385) elmcan 266#0000012000009401
(1597242904.035729) elmcan 118#5F0C221800000000
(1597242904.044782) elmcan 266#0000012000009401
(1597242904.046660) elmcan 118#600D221800000000
(1597242904.048029) elmcan 257#C94F1F0002000000
(1597242904.055951) elmcan 266#0000012000009401
(1597242904.056394) elmcan 118#610E221800000000
(1597242904.065817) elmcan 266#0000012000009401
(1597242904.066449) elmcan 118#620F221800000000
(1597242904.070635) elmcan 257#BA401F0002000000
(1597242904.076159) elmcan 266#0000012000009401
(1597242904.077250) elmcan 118#5300221800000000
(1597242904.086876) elmcan 118#5401221800000000
(1597242904.087184) elmcan 257#BB411F0002000000
(1597242904.095491) elmcan 266#0000012000009401
(1597242904.095812) elmcan 118#5502221800000000
(1597242904.106701) elmcan 266#0000012000009401
(1597242904.107047) elmcan 118#5603221800000000
(1597242904.108584) elmcan 257#BC421F0002000000
(1597242904.115465) elmcan 266#0000012000009401
(1597242904.115784) elmcan 118#5704221800000000
(1597242904.126784) elmcan 266#0000012000009401
(1597242904.127128) elmcan 118#5805221800000000
(1597242904.127396) elmcan 257#BD431F0002000000
(1597242904.135485) elmcan 266#0000012000009401
(1597242904.135819) elmcan 118#5906221800000000
(1597242904.146939) elmcan 266#0000012000009401
(1597242904.147285) elmcan 118#5A07221800000000
(1597242904.148906) elmcan 257#BE441F0002000000
(1597242904.155586) elmcan 266#0000012000009401
(1597242904.155895) elmcan 118#5B08221800000000
(1597242904.166791) elmcan 266#0000012000009401
(1597242904.167124) elmcan 118#5C09221800000000
(1597242904.168164) elmcan 257#BF451F0002000000
(1597242904.175632) elmcan 266#0000012000009401
(1597242904.175955) elmcan 118#5D0A221800000000
(1597242904.186675) elmcan 266#0000012000009401
(1597242904.187026) elmcan 118#5E0B221800000000
(1597242904.188659) elmcan 257#C0461F0002000000
(1597242904.195492) elmcan 266#0000012000009401
(1597242904.195812) elmcan 118#5F0C221800000000
(1597242904.206748) elmcan 266#0000012000009401
(1597242904.207088) elmcan 118#600D221800000000
(1597242904.207357) elmcan 257#C1471F0002000000
(1597242904.215602) elmcan 266#0000012000009401
(1597242904.215923) elmcan 118#610E221800000000
(1597242904.226866) elmcan 266#0000012000009401
(1597242904.227213) elmcan 118#620F221800000000
(1597242904.228842) elmcan 257#C2481F0002000000
(1597242904.235473) elmcan 266#0000012000009401
(1597242904.235800) elmcan 118#5300221800000000
(1597242904.249821) elmcan 266#0000012000009401
(1597242904.255002) elmcan 118#5401221800000000
(1597242904.256802) elmcan 257#C3491F0002000000
(1597242904.257457) elmcan 266#0000012000009401
(1597242904.261654) elmcan 118#5502221800000000
(1597242904.267828) elmcan 266#0000012000009401
(1597242904.274189) elmcan 118#5603221800000000
(1597242904.286086) elmcan 257#C44A1F0002000000
(1597242904.286656) elmcan 266#0000012000009401
(1597242904.287169) elmcan 118#5704221800000000
(1597242904.287957) elmcan 266#0000012000009401
(1597242904.289729) elmcan 118#5805221800000000
(1597242904.293321) elmcan 257#C54B1F0002000000
(1597242904.301797) elmcan 266#0000012000009401
(1597242904.308958) elmcan 118#5906221800000000
(1597242904.309555) elmcan 266#0000012000009401
(1597242904.310082) elmcan 118#5A07221800000000
(1597242904.315111) elmcan 257#C64C1F0002000000
(1597242904.317630) elmcan 266#0000012000009401
(1597242904.320177) elmcan 118#5B08221800000000
(1597242904.330529) elmcan 266#0000012000009401
(1597242904.332388) elmcan 118#5C09221800000000
(1597242904.334264) elmcan 257#C74D1F0002000000
(1597242904.336154) elmcan 266#0000012000009401
(1597242904.338540) elmcan 118#5D0A221800000000
(1597242904.346057) elmcan 266#0000012000009401
(1597242904.347651) elmcan 118#5E0B221800000000
(1597242904.348832) elmcan 257#C84E1F0002000000
(1597242904.355566) elmcan 266#0000012000009401
(1597242904.355879) elmcan 118#5F0C221800000000
(1597242904.364327) elmcan 266#0000012000009401
(1597242904.366896) elmcan 118#600D221800000000
(1597242904.367196) elmcan 257#C94F1F0002000000
(1597242904.374496) elmcan 266#0000012000009401
(1597242904.375996) elmcan 118#610E221800000000
(1597242904.384268) elmcan 266#0000012000009401
(1597242904.385619) elmcan 118#620F221800000000
(1597242904.387137) elmcan 257#BA401F0002000000
(1597242904.395497) elmcan 266#0000012000009401
(1597242904.395804) elmcan 118#5300221800000000
(1597242904.404469) elmcan 266#0000012000009401
(1597242904.405828) elmcan 118#5401221800000000
(1597242904.407201) elmcan 257#BB411F0002000000
(1597242904.414242) elmcan 266#0000012000009401
(1597242904.415650) elmcan 118#5502221800000000
(1597242904.424269) elmcan 266#0000012000009401
(1597242904.425621) elmcan 118#5603221800000000
(1597242904.426953) elmcan 257#BC421F0002000000
(1597242904.434227) elmcan 266#0000012000009401
(1597242904.435564) elmcan 118#5704221800000000
(1597242904.444521) elmcan 266#0000012000009401
(1597242904.445965) elmcan 118#5805221800000000
(1597242904.447289) elmcan 257#BD431F0002000000
(1597242904.455502) elmcan 266#0000012000009401
(1597242904.455814) elmcan 118#5906221800000000
(1597242904.464450) elmcan 266#0000012000009401
(1597242904.466282) elmcan 118#5A07221800000000
(1597242904.469199) elmcan 257#BE441F0002000000
(1597242904.474887) elmcan 266#0000012000009401
(1597242904.476413) elmcan 118#5B08221800000000
(1597242904.484435) elmcan 266#0000012000009401
(1597242904.485970) elmcan 118#5C09221800000000
(1597242904.487844) elmcan 257#BF451F0002000000
(1597242904.495296) elmcan 266#0000012000009401
(1597242904.496339) elmcan 118#5D0A221800000000
(1597242904.504323) elmcan 266#0000012000009401
(1597242904.505913) elmcan 118#5E0B221800000000
(1597242904.507098) elmcan 257#C0461F0002000000
(1597242904.515503) elmcan 266#0000012000009401
(1597242904.515807) elmcan 118#5F0C221800000000
(1597242904.524412) elmcan 266#0000012000009401
(1597242904.525734) elmcan 118#600D221800000000
(1597242904.527063) elmcan 257#C1471F0002000000
(1597242904.535490) elmcan 266#0000012000009401
(1597242904.535795) elmcan 118#610E221800000000
(1597242904.544748) elmcan 266#0000012000009401
(1597242904.547151) elmcan 118#620F221800000000
(1597242904.547479) elmcan 257#C2481F0002000000
(1597242904.554267) elmcan 266#0000012000009401
(1597242904.555582) elmcan 118#5300221800000000
(1597242904.564285) elmcan 266#0000012000009401
(1597242904.565956) elmcan 118#5401221800000000
(1597242904.567052) elmcan 257#C3491F0002000000
(1597242904.575709) elmcan 266#0000012000009401
(1597242904.576019) elmcan 118#5502221800000000
(1597242904.584342) elmcan 266#0000012000009401
(1597242904.585626) elmcan 118#5603221800000000
(1597242904.586958) elmcan 257#C44A1F0002000000
(1597242904.594321) elmcan 266#0000012000009401
(1597242904.595657) elmcan 118#5704221800000000
(1597242904.604733) elmcan 266#0000012000009401
(1597242904.605812) elmcan 118#5805221800000000
(1597242904.607188) elmcan 257#C54B1F0002000000
(1597242904.614247) elmcan 266#0000012000009401
(1597242904.615586) elmcan 118#5906221800000000
(1597242904.624230) elmcan 266#0000012000009401
(1597242904.625591) elmcan 118#5A07221800000000
(1597242904.626907) elmcan 257#C64C1F0002000000
(1597242904.634247) elmcan 266#0000012000009401
(1597242904.635573) elmcan 118#5B08221800000000
(1597242904.644637) elmcan 266#0000012000009401
(1597242904.646072) elmcan 118#5C09221800000000
(1597242904.647400) elmcan 257#C74D1F0002000000
(1597242904.654243) elmcan 266#0000012000009401
(1597242904.655583) elmcan 118#5D0A221800000000
(1597242904.664281) elmcan 266#0000012000009401
(1597242904.666018) elmcan 118#5E0B221800000000
(1597242904.667126) elmcan 257#C84E1F0002000000
(1597242904.674584) elmcan 266#0000012000009401
(1597242904.676237) elmcan 118#5F0C221800000000
(1597242904.684763) elmcan 266#0000012000009401
(1597242904.687323) elmcan 118#600D221800000000
(1597242904.687717) elmcan 257#C94F1F0002000000
(1597242904.694557) elmcan 266#0000012000009401
(1597242904.696004) elmcan 118#610E221800000000
(1597242904.704381) elmcan 266#0000012000009401
(1597242904.705762) elmcan 118#620F221800000000
(1597242904.707128) elmcan 257#BA401F0002000000
(1597242904.714254) elmcan 266#0000012000009401
(1597242904.715588) elmcan 118#5300221800000000
(1597242904.724265) elmcan 266#0000012000009401
(1597242904.725944) elmcan 118#5401221800000000
(1597242904.727080) elmcan 257#BB411F0002000000
(1597242904.735550) elmcan 266#0000012000009401
(1597242904.735853) elmcan 118#5502221800000000
(1597242904.744494) elmcan 266#0000012000009401
(1597242904.745809) elmcan 118#5603221800000000
(1597242904.747131) elmcan 257#BC421F0002000000
(1597242904.754232) elmcan 266#0000012000009401
(1597242904.755584) elmcan 118#5704221800000000
(1597242904.764335) elmcan 266#0000012000009401
(1597242904.765816) elmcan 118#5805221800000000
(1597242904.767133) elmcan 257#BD431F0002000000
(1597242904.775482) elmcan 266#0000012000009401
(1597242904.775789) elmcan 118#5906221800000000
(1597242904.786797) elmcan 266#0000012000009401
(1597242904.787124) elmcan 118#5A07221800000000
(1597242904.787365) elmcan 257#BE441F0002000000
(1597242904.794293) elmcan 266#0000012000009401
(1597242904.795612) elmcan 118#5B08221800000000
(1597242904.804272) elmcan 266#0000012000009401
(1597242904.806789) elmcan 118#5C09221800000000
(1597242904.807111) elmcan 257#BF451F0002000000
(1597242904.814262) elmcan 266#0000012000009401
(1597242904.815598) elmcan 118#5D0A221800000000
(1597242904.824281) elmcan 266#0000012000009401
(1597242904.825630) elmcan 118#5E0B221800000000
(1597242904.826953) elmcan 257#C0461F0002000000
(1597242904.834221) elmcan 266#0000012000009401
(1597242904.835547) elmcan 118#5F0C221800000000
(1597242904.844438) elmcan 266#0000012000009401
(1597242904.845788) elmcan 118#600D221800000000
(1597242904.847116) elmcan 257#C1471F0002000000
(1597242904.854268) elmcan 266#0000012000009401
(1597242904.855610) elmcan 118#610E221800000000
(1597242904.864270) elmcan 266#0000012000009401
(1597242904.865765) elmcan 118#620F221800000000
(1597242904.867085) elmcan 257#C2481F0002000000
(1597242904.874636) elmcan 266#0000012000009401
(1597242904.877103) elmcan 118#5300221800000000
(1597242904.884513) elmcan 266#0000012000009401
(1597242904.887539) elmcan 118#5401221800000000
(1597242904.888788) elmcan 257#C3491F0002000000
(1597242904.894646) elmcan 266#0000012000009401
(1597242904.896558) elmcan 118#5502221800000000
(1597242904.904395) elmcan 266#0000012000009401
(1597242904.907832) elmcan 118#5603221800000000
(1597242904.908122) elmcan 257#C44A1F0002000000
(1597242904.914310) elmcan 266#0000012000009401
(1597242904.916440) elmcan 118#5704221800000000
(1597242904.924376) elmcan 266#0000012000009401
(1597242904.927730) elmcan 118#5805221800000000
(1597242904.928020) elmcan 257#C54B1F0002000000
(1597242904.934433) elmcan 266#0000012000009401
(1597242904.936540) elmcan 118#5906221800000000
(1597242904.944779) elmcan 266#0000012000009401
(1597242904.948241) elmcan 118#5A07221800000000
(1597242904.948526) elmcan 257#C64C1F0002000000
(1597242904.954315) elmcan 266#0000012000009401
(1597242904.956438) elmcan 118#5B08221800000000
(1597242904.964775) elmcan 266#0000012000009401
(1597242904.968005) elmcan 118#5C09221800000000
(1597242904.968295) elmcan 257#C74D1F0002000000
(1597242904.974324) elmcan 266#0000012000009401
(1597242904.976437) elmcan 118#5D0A221800000000
(1597242904.984319) elmcan 266#0000012000009401
(1597242904.987640) elmcan 118#5E0B221800000000
(1597242904.987928) elmcan 257#C84E1F0002000000
(1597242904.995572) elmcan 266#0000012000009401
(1597242904.995882) elmcan 118#5F0C221800000000
(1597242905.004986) elmcan 266#0000012000009401
(1597242905.007418) elmcan 118#600D221800000000
(1597242905.007773) elmcan 257#C94F1F0002000000
(1597242905.015414) elmcan 266#0000012000009401
(1597242905.015894) elmcan 118#610E221800000000
(1597242905.026739) elmcan 266#0000012000009401
(1597242905.027238) elmcan 118#620F221800000000
(1597242905.027520) elmcan 257#BA401F0002000000
(1597242905.035706) elmcan 266#0000011F00009401
(1597242905.036195) elmcan 118#5300221800000000
(1597242905.046964) elmcan 266#0000011F00009401
(1597242905.047394) elmcan 118#5401221800000000
(1597242905.048814) elmcan 257#BB411F0002000000
(1597242905.058001) elmcan 266#0000011F00009401
(1597242905.058584) elmcan 118#5502221800000000
(1597242905.070623) elmcan 266#0000011F00009401
(1597242905.071533) elmcan 118#5603221800000000
(1597242905.074799) elmcan 257#BC421F0002000000
(1597242905.078047) elmcan 266#0000011F00009401
(1597242905.084496) elmcan 118#5704221800000000
(1597242905.092287) elmcan 266#0000011F00009401
(1597242905.093196) elmcan 118#5805221800000000
(1597242905.096433) elmcan 257#BD431F0002000000
(1597242905.097298) elmcan 266#0000011F00009401
(1597242905.103058) elmcan 118#5906221800000000
(1597242905.112140) elmcan 266#0000011F00009401
(1597242905.114706) elmcan 118#5A07221800000000
(1597242905.117232) elmcan 257#BE441F0002000000
(1597242905.121331) elmcan 266#0000011F00009401
(1597242905.122852) elmcan 118#5B08221800000000
(1597242905.126729) elmcan 266#0000011F00009401
(1597242905.130277) elmcan 118#5C09221800000000
(1597242905.132789) elmcan 257#BF451F0002000000
(1597242905.136087) elmcan 266#0000011F00009401
(1597242905.139611) elmcan 118#5D0A221800000000
(1597242905.146530) elmcan 266#0000011F00009401
(1597242905.152743) elmcan 118#5E0B221800000000
(1597242905.153337) elmcan 257#C0461F0002000000
(1597242905.155061) elmcan 266#0000011F00009401
(1597242905.156298) elmcan 118#5F0C221800000000
(1597242905.164420) elmcan 266#0000011F00009401
(1597242905.165691) elmcan 118#600D221800000000
(1597242905.166991) elmcan 257#C1471F0002000000
(1597242905.174191) elmcan 266#0000011F00009401
(1597242905.175496) elmcan 118#610E221800000000
(1597242905.184193) elmcan 266#0000011F00009401
(1597242905.186497) elmcan 118#620F221800000000
(1597242905.187592) elmcan 257#C2481F0002000000
(1597242905.194233) elmcan 266#0000011F00009401
(1597242905.195532) elmcan 118#5300221800000000
(1597242905.206696) elmcan 266#0000011F00009401
(1597242905.207045) elmcan 118#5401221800000000
(1597242905.207341) elmcan 257#C3491F0002000000
(1597242905.214317) elmcan 266#0000011F00009401
(1597242905.215609) elmcan 118#5502221800000000
(1597242905.224249) elmcan 266#0000011F00009401
(1597242905.225596) elmcan 118#5603221800000000
(1597242905.227132) elmcan 257#C44A1F0002000000
(1597242905.234251) elmcan 266#0000011F00009401
(1597242905.235542) elmcan 118#5704221800000000
(1597242905.244663) elmcan 266#0000011F00009401
(1597242905.246207) elmcan 118#5805221800000000
(1597242905.247371) elmcan 257#C54B1F0002000000
(1597242905.254146) elmcan 266#0000011F00009401
(1597242905.255482) elmcan 118#5906221800000000
(1597242905.264304) elmcan 266#0000011F00009401
(1597242905.265828) elmcan 118#5A07221800000000
(1597242905.267114) elmcan 257#C64C1F0002000000
(1597242905.274188) elmcan 266#0000011F00009401
(1597242905.275512) elmcan 118#5B08221800000000
(1597242905.284212) elmcan 266#0000011F00009401
(1597242905.294646) elmcan 118#5C09221800000000
(1597242905.296556) elmcan 257#C74D1F0002000000
(1597242905.297994) elmcan 266#0000011F00009401
(1597242905.301416) elmcan 118#5D0A221800000000
(1597242905.305014) elmcan 266#0000011F00009401
(1597242905.307381) elmcan 118#5E0B221800000000
(1597242905.308525) elmcan 257#C84E1F0002000000
(1597242905.314424) elmcan 266#0000011F00009401
(1597242905.315958) elmcan 118#5F0C221800000000
(1597242905.324663) elmcan 266#0000011F00009401
(1597242905.326074) elmcan 118#600D221800000000
(1597242905.327598) elmcan 257#C94F1F0002000000
(1597242905.334505) elmcan 266#0000011F00009401
(1597242905.335895) elmcan 118#610E221800000000
(1597242905.344907) elmcan 266#0000011F00009401
(1597242905.346317) elmcan 118#620F221800000000
(1597242905.347739) elmcan 257#BA401F0002000000
(1597242905.354428) elmcan 266#0000011F00009401
(1597242905.355848) elmcan 118#5300221800000000
(1597242905.364577) elmcan 266#0000011F00009401
(1597242905.366012) elmcan 118#5401221800000000
(1597242905.367405) elmcan 257#BB411F0002000000
(1597242905.374398) elmcan 266#0000011F00009401
(1597242905.375823) elmcan 118#5502221800000000
(1597242905.384494) elmcan 266#0000011F00009401
(1597242905.385942) elmcan 118#5603221800000000
(1597242905.387351) elmcan 257#BC421F0002000000
(1597242905.394429) elmcan 266#0000011F00009401
(1597242905.395848) elmcan 118#5704221800000000
(1597242905.404507) elmcan 266#0000011F00009401
(1597242905.405924) elmcan 118#5805221800000000
(1597242905.407337) elmcan 257#BD431F0002000000
(1597242905.414407) elmcan 266#0000011F00009401
(1597242905.415822) elmcan 118#5906221800000000
(1597242905.424668) elmcan 266#0000011F00009401
(1597242905.426144) elmcan 118#5A07221800000000
(1597242905.427650) elmcan 257#BE441F0002000000
(1597242905.434408) elmcan 266#0000011F00009401
(1597242905.435813) elmcan 118#5B08221800000000
(1597242905.444539) elmcan 266#0000011F00009401
(1597242905.445951) elmcan 118#5C09221800000000
(1597242905.447370) elmcan 257#BF451F0002000000
(1597242905.454435) elmcan 266#0000011F00009401
(1597242905.455843) elmcan 118#5D0A221800000000
(1597242905.464512) elmcan 266#0000011F00009401
(1597242905.465925) elmcan 118#5E0B221800000000
(1597242905.467326) elmcan 257#C0461F0002000000
(1597242905.474391) elmcan 266#0000011F00009401
(1597242905.475811) elmcan 118#5F0C221800000000
(1597242905.484577) elmcan 266#0000011F00009401
(1597242905.485952) elmcan 118#600D221800000000
(1597242905.487637) elmcan 257#C1471F0002000000
(1597242905.496065) elmcan 266#0000011F00009401
(1597242905.496671) elmcan 118#610E221800000000
(1597242905.505106) elmcan 266#0000011F00009401
(1597242905.506636) elmcan 118#620F221800000000
(1597242905.508484) elmcan 257#C2481F0002000000
(1597242905.514517) elmcan 266#0000011F00009401
(1597242905.515912) elmcan 118#5300221800000000
(1597242905.524666) elmcan 266#0000011F00009401
(1597242905.526111) elmcan 118#5401221800000000
(1597242905.527525) elmcan 257#C3491F0002000000
(1597242905.534405) elmcan 266#0000011F00009401
(1597242905.535907) elmcan 118#5502221800000000
(1597242905.544574) elmcan 266#0000011F00009401
(1597242905.545948) elmcan 118#5603221800000000
(1597242905.547362) elmcan 257#C44A1F0002000000
(1597242905.554434) elmcan 266#0000011F00009401
(1597242905.555848) elmcan 118#5704221800000000
(1597242905.564506) elmcan 266#0000011F00009401
(1597242905.565916) elmcan 118#5805221800000000
(1597242905.567315) elmcan 257#C54B1F0002000000
(1597242905.574651) elmcan 266#0000011F00009401
(1597242905.576043) elmcan 118#5906221800000000
(1597242905.584484) elmcan 266#0000011F00009401
(1597242905.585878) elmcan 118#5A07221800000000
(1597242905.587388) elmcan 257#C64C1F0002000000
(1597242905.594526) elmcan 266#0000011F00009401
(1597242905.595907) elmcan 118#5B08221800000000
(1597242905.604599) elmcan 266#0000011F00009401
(1597242905.605975) elmcan 118#5C09221800000000
(1597242905.607379) elmcan 257#C74D1F0002000000
(1597242905.614407) elmcan 266#0000011F00009401
(1597242905.615799) elmcan 118#5D0A221800000000
(1597242905.624696) elmcan 266#0000011F00009401
(1597242905.626057) elmcan 118#5E0B221800000000
(1597242905.627471) elmcan 257#C84E1F0002000000
(1597242905.634485) elmcan 266#0000011F00009401
(1597242905.635971) elmcan 118#5F0C221800000000
(1597242905.644931) elmcan 266#0000011F00009401
(1597242905.646334) elmcan 118#600D221800000000
(1597242905.647746) elmcan 257#C94F1F0002000000
(1597242905.654457) elmcan 266#0000011F00009401
(1597242905.655869) elmcan 118#610E221800000000
(1597242905.664726) elmcan 266#0000011F00009401
(1597242905.666114) elmcan 118#620F221800000000
(1597242905.667522) elmcan 257#BA401F0002000000
(1597242905.674385) elmcan 266#0000011F00009401
(1597242905.675808) elmcan 118#5300221800000000
(1597242905.684471) elmcan 266#0000011F00009401
(1597242905.685934) elmcan 118#5401221800000000
(1597242905.687343) elmcan 257#BB411F0002000000
(1597242905.694858) elmcan 266#0000011F00009401
(1597242905.697393) elmcan 118#5502221800000000
(1597242905.704803) elmcan 266#0000011F00009401
(1597242905.707350) elmcan 118#5603221800000000
(1597242905.708665) elmcan 257#BC421F0002000000
(1597242905.714582) elmcan 266#0000011F00009401
(1597242905.715974) elmcan 118#5704221800000000
(1597242905.724692) elmcan 266#0000011F00009401
(1597242905.726067) elmcan 118#5805221800000000
(1597242905.727521) elmcan 257#BD431F0002000000
(1597242905.734399) elmcan 266#0000011F00009401
(1597242905.735801) elmcan 118#5906221800000000
(1597242905.744877) elmcan 266#0000011F00009401
(1597242905.746385) elmcan 118#5A07221800000000
(1597242905.747910) elmcan 257#BE441F0002000000
(1597242905.754469) elmcan 266#0000011F00009401
(1597242905.755882) elmcan 118#5B08221800000000
(1597242905.764497) elmcan 266#0000011F00009401
(1597242905.765897) elmcan 118#5C09221800000000
(1597242905.767301) elmcan 257#BF451F0002000000
(1597242905.774362) elmcan 266#0000011F00009401
(1597242905.775789) elmcan 118#5D0A221800000000
(1597242905.784604) elmcan 266#0000011F00009401
(1597242905.785962) elmcan 118#5E0B221800000000
(1597242905.787366) elmcan 257#C0461F0002000000
(1597242905.794379) elmcan 266#0000011F00009401
(1597242905.795809) elmcan 118#5F0C221800000000
(1597242905.804485) elmcan 266#0000011F00009401
(1597242905.805885) elmcan 118#600D221800000000
(1597242905.807308) elmcan 257#C1471F0002000000
(1597242905.814409) elmcan 266#0000011F00009401
(1597242905.815825) elmcan 118#610E221800000000
(1597242905.824571) elmcan 266#0000011F00009401
(1597242905.826106) elmcan 118#620F221800000000
(1597242905.827515) elmcan 257#C2481F0002000000
(1597242905.834374) elmcan 266#0000011F00009401
(1597242905.835786) elmcan 118#5300221800000000
(1597242905.844987) elmcan 266#0000011F00009401
(1597242905.846520) elmcan 118#5401221800000000
(1597242905.848030) elmcan 257#C3491F0002000000
(1597242905.854400) elmcan 266#0000011F00009401
(1597242905.855809) elmcan 118#5502221800000000
(1597242905.866061) elmcan 266#0000011F00009401
(1597242905.868758) elmcan 118#5603221800000000
(1597242905.871619) elmcan 257#C44A1F0002000000
(1597242905.876221) elmcan 266#0000011F00009401
(1597242905.879022) elmcan 118#5704221800000000
(1597242905.886220) elmcan 266#0000011F00009401
(1597242905.889300) elmcan 118#5805221800000000
(1597242905.892183) elmcan 257#C54B1F0002000000
(1597242905.896140) elmcan 266#0000011F00009401
(1597242905.899624) elmcan 118#5906221800000000
(1597242905.906080) elmcan 266#0000011F00009401
(1597242905.909766) elmcan 118#5A07221800000000
(1597242905.912695) elmcan 257#C64C1F0002000000
(1597242905.916763) elmcan 266#0000011F00009401
(1597242905.920798) elmcan 118#5B08221800000000
(1597242905.926878) elmcan 266#0000011F00009401
(1597242905.931078) elmcan 118#5C09221800000000
(1597242905.933338) elmcan 257#C74D1F0002000000
(1597242905.936629) elmcan 266#0000012000009401
(1597242905.940249) elmcan 118#5D0A221800000000
(1597242905.946205) elmcan 266#0000012000009401
(1597242905.950982) elmcan 118#5E0B221800000000
(1597242905.953514) elmcan 257#C84E1F0002000000
(1597242905.955990) elmcan 266#0000012000009401
(1597242905.958485) elmcan 118#5F0C221800000000
(1597242905.964777) elmcan 266#0000012000009401
(1597242905.966075) elmcan 118#600D221800000000
(1597242905.967411) elmcan 257#C94F1F0002000000
(1597242905.974156) elmcan 266#0000012000009401
(1597242905.975519) elmcan 118#610E221800000000
(1597242905.984165) elmcan 266#0000012000009401
(1597242905.985892) elmcan 118#620F221800000000
(1597242905.987068) elmcan 257#BA401F0002000000
(1597242905.994167) elmcan 266#0000012000009401
(1597242905.995506) elmcan 118#5300221800000000
(1597242906.004166) elmcan 266#0000012000009401
(1597242906.006013) elmcan 118#5401221800000000
(1597242906.007226) elmcan 257#BB411F0002000000
(1597242906.014142) elmcan 266#0000012000009401
(1597242906.015505) elmcan 118#5502221800000000
(1597242906.026287) elmcan 118#5603221800000000
(1597242906.027511) elmcan 257#BC421F0002000000
(1597242906.034143) elmcan 266#0000011F00009401
(1597242906.035478) elmcan 118#5704221800000000
(1597242906.044648) elmcan 266#0000011F00009401
(1597242906.047340) elmcan 118#5805221800000000
(1597242906.047638) elmcan 257#BD431F0002000000
(1597242906.054164) elmcan 266#0000011F00009401
(1597242906.055699) elmcan 118#5906221800000000
(1597242906.064205) elmcan 266#0000011F00009401
(1597242906.065966) elmcan 118#5A07221800000000
(1597242906.067682) elmcan 257#BE441F0002000000
(1597242906.074220) elmcan 266#0000011F00009401
(1597242906.075980) elmcan 118#5B08221800000000
(1597242906.084247) elmcan 266#0000011F00009401
(1597242906.085965) elmcan 118#5C09221800000000
(1597242906.087682) elmcan 257#BF451F0002000000
(1597242906.094178) elmcan 266#0000011F00009401
(1597242906.095932) elmcan 118#5D0A221800000000
(1597242906.105159) elmcan 266#0000011F00009401
(1597242906.109314) elmcan 118#5E0B221800000000
(1597242906.110104) elmcan 257#C0461F0002000000
(1597242906.114855) elmcan 266#0000011F00009401
(1597242906.117572) elmcan 118#5F0C221800000000
(1597242906.124540) elmcan 266#0000011F00009401
(1597242906.126327) elmcan 118#600D221800000000
(1597242906.128054) elmcan 257#C1471F0002000000
(1597242906.134180) elmcan 266#0000011F00009401
(1597242906.135918) elmcan 118#610E221800000000
(1597242906.144266) elmcan 266#0000011F00009401
(1597242906.146011) elmcan 118#620F221800000000
(1597242906.147737) elmcan 257#C2481F0002000000
(1597242906.154146) elmcan 266#0000011F00009401
(1597242906.155900) elmcan 118#5300221800000000
(1597242906.164236) elmcan 266#0000011F00009401
(1597242906.166122) elmcan 118#5401221800000000
(1597242906.167852) elmcan 257#C3491F0002000000
(1597242906.175652) elmcan 266#0000011F00009401
(1597242906.175994) elmcan 118#5502221800000000
(1597242906.186473) elmcan 266#0000011F00009401
(1597242906.186840) elmcan 118#5603221800000000
(1597242906.188314) elmcan 257#C44A1F0002000000
(1597242906.195316) elmcan 266#0000011F00009401
(1597242906.195668) elmcan 118#5704221800000000
(1597242906.206643) elmcan 266#0000011F00009401
(1597242906.207004) elmcan 118#5805221800000000
(1597242906.208466) elmcan 257#C54B1F0002000000
(1597242906.215282) elmcan 266#0000011F00009401
(1597242906.215641) elmcan 118#5906221800000000
(1597242906.226952) elmcan 266#0000011F00009401
(1597242906.227320) elmcan 118#5A07221800000000
(1597242906.228790) elmcan 257#C64C1F0002000000
(1597242906.235347) elmcan 266#0000011F00009401
(1597242906.235693) elmcan 118#5B08221800000000
(1597242906.246646) elmcan 266#0000011F00009401
(1597242906.247004) elmcan 118#5C09221800000000
(1597242906.248453) elmcan 257#C74D1F0002000000
(1597242906.255276) elmcan 266#0000011F00009401
(1597242906.255626) elmcan 118#5D0A221800000000
(1597242906.266857) elmcan 266#0000011F00009401
(1597242906.267243) elmcan 118#5E0B221800000000
(1597242906.268525) elmcan 257#C84E1F0002000000
(1597242906.275377) elmcan 266#0000011F00009401
(1597242906.275737) elmcan 118#5F0C221800000000
(1597242906.286451) elmcan 266#0000011F00009401
(1597242906.286817) elmcan 118#600D221800000000
(1597242906.287743) elmcan 257#C94F1F0002000000
(1597242906.295528) elmcan 266#0000011F00009401
(1597242906.295888) elmcan 118#610E221800000000
(1597242906.307343) elmcan 266#0000011F00009401
(1597242906.307826) elmcan 118#620F221800000000
(1597242906.309357) elmcan 257#BA401F0002000000
(1597242906.316945) elmcan 266#0000011F00009401
(1597242906.318129) elmcan 118#5300221800000000
(1597242906.324411) elmcan 266#0000011F00009401
(1597242906.327111) elmcan 118#5401221800000000
(1597242906.327416) elmcan 257#BB411F0002000000
(1597242906.335280) elmcan 266#0000011F00009401
(1597242906.335625) elmcan 118#5502221800000000
(1597242906.346626) elmcan 266#0000011F00009401
(1597242906.347629) elmcan 118#5603221800000000
(1597242906.347974) elmcan 257#BC421F0002000000
(1597242906.355305) elmcan 266#0000011F00009401
(1597242906.355639) elmcan 118#5704221800000000
(1597242906.366488) elmcan 266#0000011F00009401
(1597242906.366868) elmcan 118#5805221800000000
(1597242906.368494) elmcan 257#BD431F0002000000
(1597242906.375333) elmcan 266#0000011F00009401
(1597242906.375720) elmcan 118#5906221800000000
(1597242906.384458) elmcan 266#0000011F00009401
(1597242906.385695) elmcan 118#5A07221800000000
(1597242906.387041) elmcan 257#BE441F0002000000
(1597242906.394164) elmcan 266#0000011F00009401
(1597242906.395518) elmcan 118#5B08221800000000
(1597242906.404129) elmcan 266#0000011F00009401
(1597242906.405541) elmcan 118#5C09221800000000
(1597242906.406827) elmcan 257#BF451F0002000000
(1597242906.414306) elmcan 266#0000011F00009401
(1597242906.415594) elmcan 118#5D0A221800000000
(1597242906.424088) elmcan 266#0000011F00009401
(1597242906.425454) elmcan 118#5E0B221800000000
(1597242906.426877) elmcan 257#C0461F0002000000
(1597242906.434083) elmcan 266#0000011F00009401
(1597242906.435438) elmcan 118#5F0C221800000000
(1597242906.444663) elmcan 266#0000011F00009401
(1597242906.446096) elmcan 118#600D221800000000
(1597242906.447442) elmcan 257#C1471F0002000000
(1597242906.454125) elmcan 266#0000011F00009401
(1597242906.455489) elmcan 118#610E221800000000
(1597242906.464106) elmcan 266#0000011F00009401
(1597242906.466775) elmcan 118#620F221800000000
(1597242906.467141) elmcan 257#C2481F0002000000
(1597242906.474390) elmcan 266#0000011F00009401
(1597242906.475677) elmcan 118#5300221800000000
(1597242906.484190) elmcan 266#0000011F00009401
(1597242906.486786) elmcan 118#5401221800000000
(1597242906.487118) elmcan 257#C3491F0002000000
(1597242906.495505) elmcan 266#0000011F00009401
(1597242906.495869) elmcan 118#5502221800000000
(1597242906.506844) elmcan 266#0000011F00009401
(1597242906.507218) elmcan 118#5603221800000000
(1597242906.508017) elmcan 257#C44A1F0002000000
(1597242906.516570) elmcan 266#0000011F00009401
(1597242906.517829) elmcan 118#5704221800000000
(1597242906.527528) elmcan 266#0000011F00009401
(1597242906.529300) elmcan 118#5805221800000000
(1597242906.531516) elmcan 257#C54B1F0002000000
(1597242906.535485) elmcan 266#0000012000009401
(1597242906.535854) elmcan 118#5906221800000000
(1597242906.546597) elmcan 266#0000012000009401
(1597242906.547079) elmcan 118#5A07221800000000
(1597242906.548485) elmcan 257#C64C1F0002000000
(1597242906.555378) elmcan 266#0000012000009401
(1597242906.555841) elmcan 118#5B08221800000000
(1597242906.566833) elmcan 266#0000012000009401
(1597242906.567305) elmcan 118#5C09221800000000
(1597242906.568697) elmcan 257#C74D1F0002000000
(1597242906.575264) elmcan 266#0000012000009401
(1597242906.575745) elmcan 118#5D0A221800000000
(1597242906.586539) elmcan 266#0000012000009401
(1597242906.587036) elmcan 118#5E0B221800000000
(1597242906.588807) elmcan 257#C84E1F0002000000
(1597242906.595513) elmcan 266#0000012000009401
(1597242906.595848) elmcan 118#5F0C221800000000
(1597242906.606538) elmcan 266#0000012000009401
(1597242906.606899) elmcan 118#600D221800000000
(1597242906.608352) elmcan 257#C94F1F0002000000
(1597242906.615405) elmcan 266#0000012000009401
(1597242906.615752) elmcan 118#610E221800000000
(1597242906.626579) elmcan 266#0000012000009401
(1597242906.626948) elmcan 118#620F221800000000
(1597242906.628417) elmcan 257#BA401F0002000000
(1597242906.635254) elmcan 266#0000012000009401
(1597242906.635598) elmcan 118#5300221800000000
(1597242906.646739) elmcan 266#0000012000009401
(1597242906.647111) elmcan 118#5401221800000000
(1597242906.648573) elmcan 257#BB411F0002000000
(1597242906.655422) elmcan 266#0000012000009401
(1597242906.655767) elmcan 118#5502221800000000
(1597242906.666545) elmcan 266#0000012000009401
(1597242906.666903) elmcan 118#5603221800000000
(1597242906.668871) elmcan 257#BC421F0002000000
(1597242906.678200) elmcan 266#0000012000009401
(1597242906.678798) elmcan 118#5704221800000000
(1597242906.689296) elmcan 266#0000012000009401
(1597242906.691447) elmcan 118#5805221800000000
(1597242906.692335) elmcan 257#BD431F0002000000
(1597242906.696180) elmcan 266#0000012000009401
(1597242906.698514) elmcan 118#5906221800000000
(1597242906.705684) elmcan 266#0000012000009401
(1597242906.710391) elmcan 118#5A07221800000000
(1597242906.711212) elmcan 257#BE441F0002000000
(1597242906.722112) elmcan 266#0000012000009401
(1597242906.728970) elmcan 118#5B08221800000000
(1597242906.729677) elmcan 266#0000012000009401
(1597242906.730221) elmcan 118#5C09221800000000
(1597242906.733548) elmcan 257#BF451F0002000000
(1597242906.740334) elmcan 266#0000012000009401
(1597242906.741032) elmcan 118#5D0A221800000000
(1597242906.757725) elmcan 266#0000012000009401
(1597242906.758426) elmcan 118#5E0B221800000000
(1597242906.761771) elmcan 257#C0461F0002000000
(1597242906.762450) elmcan 266#0000012000009401
(1597242906.767081) elmcan 118#5F0C221800000000
(1597242906.767680) elmcan 266#0000012000009401
(1597242906.769618) elmcan 118#600D221800000000
(1597242906.769969) elmcan 257#C1471F0002000000
(1597242906.775578) elmcan 266#0000012000009401
(1597242906.775911) elmcan 118#610E221800000000
(1597242906.784239) elmcan 266#0000012000009401
(1597242906.787324) elmcan 118#620F221800000000
(1597242906.787627) elmcan 257#C2481F0002000000
(1597242906.794711) elmcan 266#0000012000009401
(1597242906.796280) elmcan 118#5300221800000000
(1597242906.804262) elmcan 266#0000012000009401
(1597242906.805582) elmcan 118#5401221800000000
(1597242906.807001) elmcan 257#C3491F0002000000
(1597242906.815330) elmcan 266#0000012000009401
(1597242906.815688) elmcan 118#5502221800000000
(1597242906.825135) elmcan 266#0000012000009401
(1597242906.827336) elmcan 118#5603221800000000
